!Keysight Technologies,N5227B,US60211109,A.19.55.13
!Date: Tuesday, March 03, 2026 18:18:06
!Correction: S11(Cdelta 2-Port  ) 
!S21(Cdelta 2-Port  ) 
!S12(Cdelta 2-Port  ) 
!S22(Cdelta 2-Port  ) 
!S2P File: Measurements: S11, S21, S12, S22:
# Hz S  dB   R 50
34600000000 -0.089716449 76.621162 -93.449509 -105.10762 -96.246452 18.012037 -0.077378653 79.720795
34606000000 -0.089029424 76.279633 -111.86108 128.64467 -104.38253 51.911381 -0.077054538 79.363594
34612000000 -0.088606164 75.929741 -99.948761 10.649035 -102.15408 69.507263 -0.077047691 79.00341
34618000000 -0.088327706 75.577995 -97.697487 -32.002251 -111.14379 -10.783211 -0.074745893 78.643402
34624000000 -0.088612236 75.226494 -102.52361 61.131233 -99.880013 -143.01311 -0.073684715 78.290321
34630000000 -0.087612897 74.877922 -94.846825 -38.641644 -98.707672 -58.546108 -0.07305523 77.929504
34636000000 -0.087414272 74.52301 -113.34472 16.512733 -109.1433 -154.12463 -0.072711177 77.575478
34642000000 -0.087997764 74.16774 -95.05426 149.55182 -103.92765 -101.86662 -0.072295293 77.20974
34648000000 -0.087808892 73.803085 -92.198593 -94.380638 -97.248726 -28.767889 -0.071963146 76.85466
34654000000 -0.088040024 73.452774 -101.92912 -14.373984 -103.10949 -116.91398 -0.070544809 76.492317
34660000000 -0.088129841 73.086777 -103.88043 69.723701 -98.689789 46.87962 -0.070822127 76.1306
34666000000 -0.087720141 72.726326 -95.423988 -147.66061 -104.0383 133.88885 -0.070788443 75.764915
34672000000 -0.087611318 72.360146 -90.99984 -50.658218 -99.00071 -38.049328 -0.07019043 75.398224
34678000000 -0.085197531 71.995461 -103.46878 89.7295 -94.694984 8.4600573 -0.069524892 75.026932
34684000000 -0.084552921 71.637711 -100.51597 -37.550957 -100.70686 20.974165 -0.069772683 74.659744
34690000000 -0.084164143 71.281914 -107.17208 -175.49777 -97.628143 -28.810869 -0.068589374 74.288902
34696000000 -0.083732381 70.90995 -100.34061 69.740097 -98.753586 156.84535 -0.068642229 73.920097
34702000000 -0.083748743 70.55397 -103.01575 -42.463032 -99.152626 126.11746 -0.068944409 73.551842
34708000000 -0.081833512 70.175934 -103.37431 53.412262 -98.022476 -91.875938 -0.069758475 73.178955
34714000000 -0.080507681 69.808739 -90.880074 15.033535 -94.805649 31.865723 -0.068059236 72.805855
34720000000 -0.080403782 69.434761 -96.403549 -13.854535 -96.271942 -54.640617 -0.068995699 72.425011
34726000000 -0.078081496 69.071701 -97.813011 -0.6797992 -95.31057 -154.86 -0.068053976 72.05397
34732000000 -0.0767489 68.707695 -105.62746 -136.89102 -107.18541 53.592899 -0.067168199 71.679436
34738000000 -0.074936308 68.336693 -103.59847 -89.412292 -98.132469 -71.807648 -0.065293901 71.304008
34744000000 -0.074107312 67.969002 -91.246307 -71.963753 -95.192459 -109.23912 -0.06385909 70.932297
34750000000 -0.074240021 67.60244 -102.89991 -24.100039 -91.03495 111.17387 -0.062507212 70.551697
34756000000 -0.074027792 67.235603 -96.195267 -81.532272 -95.479752 -9.9370594 -0.061341111 70.182823
34762000000 -0.073299013 66.862747 -95.491867 -137.39914 -102.67319 -53.499916 -0.060928416 69.805847
34768000000 -0.072368205 66.496651 -102.35825 -92.133736 -97.213608 38.562664 -0.060853597 69.423843
34774000000 -0.071164981 66.117203 -99.681419 -38.986324 -97.0224 -12.875373 -0.05952549 69.043427
34780000000 -0.071073934 65.74527 -91.513748 31.532751 -99.116501 -111.64014 -0.058867883 68.669968
34786000000 -0.070547178 65.379066 -103.74547 26.529036 -97.450966 -62.252846 -0.05762301 68.289253
34792000000 -0.070023112 65.007141 -98.435814 -101.55445 -95.838585 17.877291 -0.057048574 67.911499
34798000000 -0.070908166 64.638634 -100.61262 17.890015 -94.799477 -78.441689 -0.056194928 67.527634
34804000000 -0.070263304 64.264069 -117.63976 -60.046169 -100.18214 78.959641 -0.055026058 67.14624
34810000000 -0.069766104 63.885452 -97.987343 -53.038136 -97.844223 -120.89661 -0.054433357 66.761238
34816000000 -0.069630377 63.503796 -104.5816 -71.288696 -113.39683 164.22237 -0.054600593 66.376564
34822000000 -0.06950175 63.129539 -97.174057 -34.452988 -101.30628 -19.480579 -0.054511994 65.998878
34828000000 -0.070274353 62.758858 -103.08991 -23.676922 -99.441345 71.475281 -0.052691888 65.60817
34834000000 -0.070032321 62.37149 -105.16553 56.086601 -99.188286 -67.721741 -0.052074611 65.229675
34840000000 -0.069900267 61.996056 -98.931122 86.393967 -97.584991 -98.035141 -0.051460832 64.834198
34846000000 -0.069783993 61.613689 -93.242058 -19.911512 -96.467514 149.58878 -0.052452669 64.458145
34852000000 -0.070198059 61.237782 -95.403946 -6.9588981 -98.248047 -0.14948428 -0.051342435 64.058327
34858000000 -0.070186749 60.848816 -93.998634 -5.7331405 -90.974709 -11.594296 -0.050636046 63.660412
34864000000 -0.069471762 60.467842 -96.125923 -49.319382 -91.631599 -71.547066 -0.051369414 63.27346
34870000000 -0.068905748 60.084621 -97.130936 -171.98239 -105.72257 -44.501938 -0.048875939 62.874119
34876000000 -0.067896739 59.695766 -100.32327 38.28764 -94.145866 -17.396822 -0.049535438 62.477673
34882000000 -0.068306416 59.314564 -96.101669 -44.294849 -102.49778 -61.892662 -0.049811676 62.084438
34888000000 -0.067869917 58.931168 -104.62595 70.290588 -98.033165 -40.453049 -0.047421943 61.676041
34894000000 -0.067621715 58.544071 -102.07737 -166.64854 -96.64138 71.114807 -0.048276223 61.285278
34900000000 -0.065944068 58.160023 -95.556183 -17.894073 -102.8587 106.39411 -0.047686271 60.881378
34906000000 -0.0663165 57.772972 -99.923943 -41.800476 -100.38383 -106.41951 -0.046985447 60.480259
34912000000 -0.066097558 57.382912 -91.931892 -31.419821 -93.657021 -43.976192 -0.046130899 60.071541
34918000000 -0.064157784 56.997692 -106.09226 -70.264206 -101.64906 -72.388275 -0.046621472 59.66684
34924000000 -0.063133851 56.602455 -96.244148 -85.112106 -101.65968 -28.164728 -0.045415938 59.268845
34930000000 -0.062688686 56.216228 -92.847801 -17.745626 -97.149063 -33.863228 -0.043913156 58.851894
34936000000 -0.060698457 55.825851 -92.459038 -131.32634 -93.95089 -95.749191 -0.043536104 58.446613
34942000000 -0.060542271 55.441051 -100.08173 -14.534279 -99.522728 -124.86315 -0.043145224 58.037888
34948000000 -0.059927553 55.050369 -94.222908 -20.277979 -91.237465 -48.152832 -0.043410338 57.630043
34954000000 -0.058799401 54.663586 -101.17152 -140.07745 -95.634827 -70.476952 -0.042928495 57.2271
34960000000 -0.057799552 54.268814 -97.927002 -58.155449 -118.159 -134.81245 -0.041440945 56.813614
34966000000 -0.057813719 53.874477 -91.792068 -63.543537 -104.44815 -126.10876 -0.04221537 56.402756
34972000000 -0.057243451 53.48386 -103.5879 -70.93602 -91.443802 -2.1569867 -0.040744003 55.98539
34978000000 -0.057907633 53.088505 -94.025146 -20.402222 -94.594955 -35.798164 -0.038570013 55.56498
34984000000 -0.057449359 52.695412 -89.306168 -60.202477 -97.516884 -53.691055 -0.038390331 55.15379
34990000000 -0.056265991 52.29475 -101.14874 -67.684891 -95.755608 41.150467 -0.038204391 54.734314
34996000000 -0.057272308 51.900589 -92.884613 -60.849331 -88.084419 -12.104972 -0.03674848 54.312973
35002000000 -0.057031002 51.506775 -92.813728 -43.960804 -96.21212 -34.599495 -0.036365785 53.904869
35008000000 -0.057112832 51.1092 -90.412033 11.362737 -95.292221 -21.150412 -0.036122505 53.475193
35014000000 -0.058290135 50.698212 -102.13753 -36.946728 -91.731812 -36.493736 -0.035935353 53.059875
35020000000 -0.056545805 50.292484 -89.921463 -51.025078 -97.088448 -63.611183 -0.034180414 52.643169
35026000000 -0.055979904 49.887741 -93.897682 -7.9259171 -103.54579 -71.827698 -0.033967 52.222065
35032000000 -0.05599511 49.481853 -92.275391 -25.082718 -90.320023 -39.166618 -0.033486463 51.807777
35038000000 -0.057204634 49.066216 -93.452835 -64.497078 -96.376213 -35.534264 -0.033896297 51.3862
35044000000 -0.055697504 48.663727 -90.262459 -50.917595 -89.64727 -33.925423 -0.031152884 50.969227
35050000000 -0.055996686 48.244991 -96.28006 -179.31996 -97.108261 -27.110025 -0.030642679 50.544651
35056000000 -0.055964172 47.836098 -91.578308 -89.531914 -103.58871 -7.270443 -0.029876571 50.123356
35062000000 -0.055856138 47.412952 -91.523308 -74.135605 -95.5606 -110.82041 -0.028468786 49.70274
35068000000 -0.05519332 46.986801 -96.70462 -63.267887 -95.208984 -30.92415 -0.02739905 49.275696
35074000000 -0.055370551 46.562191 -92.26918 -72.755951 -86.562119 -52.536125 -0.024940645 48.855602
35080000000 -0.055774853 46.141273 -94.078621 -65.193222 -89.005058 -62.821888 -0.026195716 48.422005
35086000000 -0.05427058 45.728752 -95.447342 -55.169346 -88.216385 -20.865259 -0.024587363 47.999245
35092000000 -0.055049129 45.299908 -92.534615 -42.271591 -97.849915 12.382731 -0.024993496 47.569664
35098000000 -0.053117163 44.873829 -91.871346 -59.381462 -91.683975 11.368546 -0.023642732 47.137558
35104000000 -0.052596249 44.438423 -93.04557 -40.579369 -89.485199 -49.676682 -0.023558924 46.697475
35110000000 -0.053655703 44.020588 -91.651802 -48.057682 -92.827614 -56.449982 -0.023572979 46.264904
35116000000 -0.052985884 43.588352 -87.443863 -51.677002 -89.748177 -67.092003 -0.023544349 45.828007
35122000000 -0.051099885 43.153664 -88.739738 -33.704632 -90.149597 -33.779362 -0.022660833 45.388119
35128000000 -0.050380703 42.729969 -90.107841 -52.97226 -91.458183 -28.780075 -0.023443887 44.955814
35134000000 -0.050365254 42.297203 -90.931175 -65.314651 -90.80722 -42.652969 -0.022396203 44.508438
35140000000 -0.050015919 41.857128 -90.187294 -24.611528 -91.024818 -68.435379 -0.022286922 44.057888
35146000000 -0.0496043 41.427437 -89.582176 -65.185165 -88.368179 -62.577137 -0.02199864 43.6152
35152000000 -0.048218898 40.989601 -89.87571 12.708964 -88.099609 -69.728973 -0.021882083 43.161545
35158000000 -0.047516156 40.550159 -87.508118 -57.543968 -90.423271 -51.390022 -0.021510839 42.708721
35164000000 -0.047439478 40.112213 -90.054131 -57.948158 -86.036308 -47.003067 -0.02134409 42.256874
35170000000 -0.047590222 39.670059 -86.860352 -59.206436 -94.320236 -66.68425 -0.021293625 41.804413
35176000000 -0.048097972 39.230576 -86.116104 -47.05653 -91.903824 -63.976204 -0.019576052 41.340122
35182000000 -0.046591904 38.788216 -86.542076 -66.26326 -85.483261 -62.810249 -0.020240737 40.875484
35188000000 -0.047046416 38.351173 -87.764442 -40.266361 -86.40303 -69.14653 -0.019772118 40.410576
35194000000 -0.046151042 37.897984 -85.920586 -56.069305 -88.500481 -42.968113 -0.020132551 39.955254
35200000000 -0.045461453 37.4562 -90.447319 -34.687027 -86.969063 -54.683521 -0.018395161 39.488792
35206000000 -0.045820363 37.006821 -85.892372 -66.531708 -88.20742 -65.888481 -0.018847512 39.022663
35212000000 -0.045870066 36.552952 -87.000969 -20.286152 -92.434433 -74.385849 -0.016574273 38.557884
35218000000 -0.045744497 36.098312 -86.71727 -58.013428 -84.439934 -45.75024 -0.01689364 38.084259
35224000000 -0.04627087 35.645336 -90.037567 -58.428722 -86.64463 -55.652203 -0.015294704 37.622372
35230000000 -0.044692989 35.184849 -86.863976 -66.924309 -87.697334 -52.477402 -0.014170032 37.153084
35236000000 -0.045206156 34.721638 -86.056068 -52.681404 -90.00032 -70.68409 -0.013999149 36.673203
35242000000 -0.044031087 34.278416 -84.45816 -61.466179 -85.431427 -21.116686 -0.013044355 36.206837
35248000000 -0.045682758 33.81879 -83.592949 -60.599392 -84.33799 -63.609936 -0.011482132 35.720043
35254000000 -0.045460932 33.349819 -85.292191 -62.031326 -86.157196 -56.194889 -0.011378574 35.254147
35260000000 -0.043775614 32.880928 -84.831123 -69.486481 -84.167297 -83.208488 -0.011751547 34.768177
35266000000 -0.046815097 32.412884 -86.147926 -90.618919 -83.512009 -55.034332 -0.010957623 34.297188
35272000000 -0.045207724 31.954823 -84.889908 -45.188015 -86.155464 -74.709038 -0.012362598 33.804581
35278000000 -0.043775614 31.474585 -84.535217 -67.341965 -82.199463 -59.686592 -0.01124699 33.327141
35284000000 -0.045550656 31.004612 -87.415993 -56.359718 -82.866661 -66.072365 -0.012391413 32.844063
35290000000 -0.045206942 30.525181 -83.070648 -48.242031 -84.750656 -71.821259 -0.01234806 32.346821
35296000000 -0.043424457 30.046177 -81.46933 -59.252609 -83.344872 -59.257683 -0.012402575 31.848612
35302000000 -0.043588135 29.576138 -83.833267 -56.487186 -81.114151 -74.292221 -0.012081722 31.348957
35308000000 -0.043922309 29.097162 -84.53463 -56.120289 -82.35907 -60.342674 -0.013093166 30.851128
35314000000 -0.045065437 28.615788 -82.392128 -72.933739 -82.760078 -62.722565 -0.012011635 30.344419
35320000000 -0.043144442 28.13652 -83.238167 -58.435875 -81.609467 -60.482479 -0.01393968 29.846092
35326000000 -0.044416029 27.647182 -81.924187 -65.896492 -81.652443 -63.90905 -0.013613 29.343132
35332000000 -0.043389946 27.154469 -82.121765 -72.240128 -80.907761 -65.401169 -0.012411661 28.833286
35338000000 -0.045084268 26.655495 -82.93261 -78.867058 -81.149895 -67.073799 -0.0123099 28.316576
35344000000 -0.045024633 26.1658 -80.757362 -69.120377 -83.240898 -74.6548 -0.012370385 27.805546
35350000000 -0.045636717 25.668224 -81.658844 -66.97168 -80.690735 -67.593513 -0.012301592 27.287176
35356000000 -0.044854622 25.169544 -81.253563 -68.808846 -79.548347 -64.392593 -0.012892209 26.772549
35362000000 -0.044357713 24.668011 -79.931511 -66.154068 -79.979614 -69.909332 -0.011525735 26.240242
35368000000 -0.046233196 24.167639 -79.323677 -67.70163 -80.52636 -65.100471 -0.011182627 25.713821
35374000000 -0.045092899 23.655416 -79.805481 -62.604553 -79.770966 -70.661324 -0.010637654 25.191229
35380000000 -0.044522472 23.14872 -79.30825 -62.740814 -79.558998 -66.314743 -0.0095245652 24.668442
35386000000 -0.045489181 22.631281 -79.088249 -66.308701 -77.634979 -59.457561 -0.010298767 24.133106
35392000000 -0.047780227 22.112215 -77.649071 -62.64769 -79.52861 -63.580673 -0.0070347702 23.606386
35398000000 -0.046860106 21.589806 -78.839035 -64.470406 -79.039673 -77.334427 -0.0073954426 23.062443
35404000000 -0.047871307 21.065695 -78.832237 -64.309441 -77.022949 -68.726578 -0.0063140336 22.525167
35410000000 -0.047624242 20.544466 -77.224693 -68.228355 -77.944237 -74.483749 -0.0058938316 21.981201
35416000000 -0.047555935 20.007839 -78.215469 -69.754295 -78.24659 -69.917862 -0.0058090705 21.437143
35422000000 -0.048117079 19.475765 -77.493034 -70.946846 -78.355621 -70.508888 -0.0074148905 20.908014
35428000000 -0.048169687 18.948481 -77.313278 -74.585793 -76.953514 -64.86055 -0.0066629797 20.358866
35434000000 -0.049159728 18.414576 -77.271385 -73.821304 -77.215355 -79.587036 -0.006674387 19.808786
35440000000 -0.049263667 17.870207 -76.737236 -76.084496 -77.538727 -77.615074 -0.0085787941 19.261127
35446000000 -0.049782872 17.326706 -75.826736 -71.293724 -75.762428 -74.620392 -0.0094425865 18.713245
35452000000 -0.050170943 16.784117 -75.815018 -75.326141 -75.94413 -68.220261 -0.010733928 18.149736
35458000000 -0.050750755 16.233923 -75.805336 -77.364403 -74.459366 -77.489845 -0.011915852 17.588314
35464000000 -0.04962891 15.68226 -74.406494 -76.767227 -74.880966 -84.161453 -0.011554805 17.026093
35470000000 -0.050969712 15.138143 -74.221245 -81.491714 -74.368889 -76.676338 -0.01271151 16.454981
35476000000 -0.051539678 14.57461 -74.388573 -77.902878 -74.294968 -79.854805 -0.01317807 15.89473
35482000000 -0.050795805 14.023488 -74.548752 -77.919563 -73.833748 -79.271545 -0.013108745 15.311944
35488000000 -0.053336501 13.457572 -74.614395 -82.897461 -73.25074 -80.293137 -0.014787396 14.721512
35494000000 -0.052105527 12.886456 -73.283897 -77.135719 -73.544197 -74.768456 -0.01454844 14.153973
35500000000 -0.052798007 12.322268 -73.501488 -79.383644 -73.556557 -79.928085 -0.014262748 13.568062
35506000000 -0.052263245 11.763834 -72.811943 -78.484772 -72.128502 -82.858635 -0.015729066 12.975599
35512000000 -0.054607935 11.180697 -72.401901 -82.300102 -72.381508 -73.018005 -0.015920023 12.378034
35518000000 -0.055483554 10.61094 -72.396416 -79.708862 -72.198135 -83.455978 -0.01633184 11.781376
35524000000 -0.053631067 10.034069 -71.551819 -81.50605 -71.760933 -83.821754 -0.016986154 11.183344
35530000000 -0.056011107 9.4375601 -71.728668 -84.061562 -71.507904 -86.40567 -0.017532963 10.587814
35536000000 -0.058110159 8.8608694 -70.695335 -84.183167 -71.019768 -81.325523 -0.018258944 9.9792538
35542000000 -0.057480834 8.2751112 -70.71447 -84.064026 -70.79512 -84.099403 -0.017547779 9.3654213
35548000000 -0.058189388 7.6804776 -70.723915 -85.903168 -70.664841 -90.418755 -0.01793142 8.7610435
35554000000 -0.059164397 7.0952749 -70.289688 -87.837669 -69.942802 -88.552666 -0.016219852 8.1443396
35560000000 -0.060591619 6.5036607 -69.608147 -85.501343 -69.357117 -86.026718 -0.017346095 7.5419831
35566000000 -0.061340846 5.9056144 -69.254158 -88.112389 -69.639496 -87.359016 -0.016542573 6.9193802
35572000000 -0.062725976 5.2831688 -69.033562 -87.58934 -69.511772 -87.536804 -0.018403219 6.2961731
35578000000 -0.064738683 4.6835432 -68.699142 -84.810745 -68.780602 -87.281158 -0.017740894 5.6561761
35584000000 -0.065304413 4.059504 -68.511459 -89.568863 -68.50058 -90.313347 -0.018530341 5.0190377
35590000000 -0.066685021 3.4440477 -67.764984 -86.627266 -68.37532 -89.91185 -0.022068886 4.387836
35596000000 -0.068417646 2.8153791 -67.933136 -89.389389 -67.845367 -90.027336 -0.02300615 3.7404952
35602000000 -0.06850522 2.1926508 -67.246849 -91.65329 -67.401497 -91.643005 -0.023802802 3.0983076
35608000000 -0.071398124 1.5550463 -66.974503 -91.848083 -67.15538 -92.254272 -0.026972376 2.462085
35614000000 -0.070876062 0.91185832 -66.679794 -90.359222 -66.871925 -92.857307 -0.028746294 1.8020276
35620000000 -0.074419878 0.25559336 -66.296921 -93.891891 -66.464073 -93.685173 -0.033496115 1.1390146
35626000000 -0.076666698 -0.37129653 -65.676155 -93.32975 -65.761162 -93.894554 -0.033589244 0.48471805
35632000000 -0.077329107 -1.0290501 -65.567543 -94.16465 -65.220894 -94.643478 -0.035494272 -0.19895299
35638000000 -0.080547236 -1.6884606 -65.274185 -95.942604 -64.925575 -94.548904 -0.039641198 -0.8733741
35644000000 -0.081193358 -2.3570089 -64.877258 -95.725693 -64.696304 -96.000458 -0.042258758 -1.5687615
35650000000 -0.082839705 -3.027703 -64.860847 -95.672508 -64.386971 -96.958336 -0.043807514 -2.2550778
35656000000 -0.084472947 -3.711199 -63.977222 -96.676102 -64.097603 -96.834297 -0.046530679 -2.9599955
35662000000 -0.087414011 -4.3958955 -63.813122 -97.865067 -63.791809 -97.462234 -0.046914272 -3.664294
35668000000 -0.090095952 -5.0769763 -63.227524 -98.187744 -63.512508 -100.26785 -0.050192941 -4.3836627
35674000000 -0.091201335 -5.7675481 -63.05006 -100.9921 -62.883209 -100.85971 -0.051561944 -5.0996771
35680000000 -0.092703916 -6.4702535 -62.932487 -101.69818 -62.38361 -100.71835 -0.051948339 -5.8184156
35686000000 -0.093311653 -7.172339 -62.250076 -100.64227 -62.352646 -101.278 -0.055146918 -6.5555787
35692000000 -0.096529469 -7.8897367 -61.941593 -100.74902 -61.836929 -102.82108 -0.055434525 -7.2884393
35698000000 -0.09729816 -8.5965881 -61.361191 -102.70959 -61.33181 -103.31686 -0.056386624 -8.0358572
35704000000 -0.099796556 -9.3243351 -60.868683 -103.02531 -61.059742 -103.00925 -0.059797902 -8.7851982
35710000000 -0.10110021 -10.043516 -60.608387 -103.65338 -60.570381 -104.15027 -0.059398472 -9.5270681
35716000000 -0.10228552 -10.775586 -60.321754 -104.66605 -60.17857 -104.72319 -0.060804509 -10.271361
35722000000 -0.10349024 -11.512745 -59.917561 -104.95329 -60.039192 -104.87775 -0.060650155 -11.035598
35728000000 -0.10508406 -12.255856 -59.30283 -106.48656 -59.553169 -106.82629 -0.062139835 -11.792868
35734000000 -0.10774218 -13.003443 -58.918671 -107.64407 -59.084396 -108.07813 -0.063471898 -12.553178
35740000000 -0.11068949 -13.758443 -58.607075 -108.2562 -58.653702 -108.18847 -0.065413468 -13.322943
35746000000 -0.11092769 -14.522429 -58.233582 -109.03362 -58.227867 -108.95412 -0.065660231 -14.105439
35752000000 -0.11310208 -15.278052 -57.856396 -110.82793 -57.923592 -110.18627 -0.067981139 -14.889246
35758000000 -0.11483259 -16.050245 -57.434307 -111.06678 -57.508728 -111.12129 -0.070051 -15.676133
35764000000 -0.11783287 -16.839394 -57.031723 -111.0434 -57.033009 -111.88587 -0.073897719 -16.472151
